
T2594 000:353 SEGGER J-Link V4.92 Log File (0000ms, 0288ms total)
T2594 000:353 DLL Compiled: Sep 30 2014 09:33:42 (0000ms, 0288ms total)
T2594 000:353 Logging started @ 2014-12-02 18:39 (0000ms, 0288ms total)
T2594 000:353 JLINK_SetWarnOutHandler(...) (0000ms, 0288ms total)
T2594 000:353 JLINK_OpenEx(...)
Firmware: J-Link ARM V8 compiled Sep 22 2014 23:26:43
Hardware: V8.00
Feature(s): RDI,FlashDL,FlashBP,JFlash,GDBFULL  returns O.K. (0289ms, 0577ms total)
T2594 000:642 JLINK_SetErrorOutHandler(...) (0000ms, 0577ms total)
T2594 000:642 JLINK_ExecCommand("ProjectFile = "C:\Users\Liu\Desktop\Stereo\Stereo\Projects\MDK-ARM\JLinkSettings.ini"", ...)  returns 0x00 (0000ms, 0577ms total)
T2594 000:650 JLINK_ExecCommand("Device = STM32F429ZG", ...)Device "STM32F429ZG" selected (1024 KB flash, 192 KB RAM).  returns 0x00 (0026ms, 0603ms total)
T2594 000:676 JLINK_ExecCommand("DisableConnectionTimeout", ...)  returns 0x01 (0000ms, 0603ms total)
T2594 000:676 JLINK_GetHardwareVersion()  returns 0x13880 (0000ms, 0603ms total)
T2594 000:676 JLINK_GetDLLVersion()  returns 49200 (0000ms, 0603ms total)
T2594 000:676 JLINK_GetFirmwareString(...) (0000ms, 0603ms total)
T2594 000:707 JLINK_GetDLLVersion()  returns 49200 (0000ms, 0603ms total)
T2594 000:707 JLINK_GetCompileDateTime() (0000ms, 0603ms total)
T2594 000:717 JLINK_GetFirmwareString(...) (0000ms, 0603ms total)
T2594 000:719 JLINK_GetHardwareVersion()  returns 0x13880 (0000ms, 0603ms total)
T2594 000:732 JLINK_TIF_Select(JLINKARM_TIF_SWD)  returns 0x00 (0005ms, 0608ms total)
T2594 000:737 JLINK_SetSpeed(500) (0001ms, 0609ms total)
T2594 000:738 JLINK_GetId() >0x108 TIF>Found SWD-DP with ID 0x2BA01477 >0x0D TIF> >0x28 TIF> >0x0D TIF> >0x28 TIF> >0x0D TIF> >0x21 TIF> >0x0D TIF> >0x28 TIF> >0x0D TIF> >0x28 TIF> >0x0D TIF> >0x28 TIF> >0x0D TIF> >0x21 TIF> >0x0D TIF> >0x21 TIF> >0x0D TIF> >0x28 TIF> >0x0D TIF> >0x21 TIF> >0x0D TIF> >0x21 TIF> >0x0D TIF> >0x28 TIF> >0x0D TIF> >0x28 TIF> >0x0D TIF> >0x28 TIF> >0x0D TIF> >0x21 TIF> >0x0D TIF> >0x21 TIF> >0x0D TIF> >0x28 TIF> >0x0D TIF> >0x28 TIF> >0x108 TIF>Found SWD-DP with ID 0x2BA01477
 >0x0D TIF> >0x21 TIF> >0x0D TIF> >0x28 TIF> >0x0D TIF> >0x28 TIF> >0x0D TIF> >0x21 TIF> >0x0D TIF> >0x28 TIF> >0x0D TIF> >0x21 TIF> >0x0D TIF> >0x21 TIF> >0x0D TIF> >0x21 TIF> >0x0D TIF> >0x21 TIF> >0x0D TIF> >0x28 TIF> >0x0D TIF> >0x28 TIF> >0x0D TIF> >0x21 TIF> >0x0D TIF> >0x28 TIF> >0x0D TIF> >0x28 TIF> >0x0D TIF> >0x28 TIF> >0x0D TIF> >0x21 TIF> >0x0D TIF> >0x21 TIF> >0x0D TIF> >0x28 TIF> >0x0D TIF> >0x21 TIF> >0x0D TIF> >0x21 TIF>Found Cortex-M4 r0p1, Little endian.
 -- CPU_WriteMem(4 bytes @ 0xE0002000) -- CPU_ReadMem(4 bytes @ 0xE000EDF0) -- CPU_WriteMem(4 bytes @ 0xE000EDF0) -- CPU_ReadMem(4 bytes @ 0xE0002000)FPUnit: 6 code (BP) slots and 2 literal slots -- CPU_ReadMem(4 bytes @ 0xE000EDFC) -- CPU_WriteMem(4 bytes @ 0xE000EDFC) -- CPU_ReadMem(4 bytes @ 0xE0001000) -- CPU_WriteMem(4 bytes @ 0xE0001000) -- CPU_ReadMem(4 bytes @ 0xE000ED88) -- CPU_WriteMem(4 bytes @ 0xE000ED88) -- CPU_ReadMem(4 bytes @ 0xE000ED88) -- CPU_WriteMem(4 bytes @ 0xE000ED88)
 -- CPU_ReadMem(4 bytes @ 0xE00FF010)TPIU fitted. -- CPU_ReadMem(4 bytes @ 0xE00FF014)ETM fitted. -- CPU_ReadMem(4 bytes @ 0xE00FF018) >0x0D TIF> >0x21 TIF>  returns 0x2BA01477 (0178ms, 0787ms total)
T2594 000:916 JLINK_GetDeviceFamily()  returns 14 (0000ms, 0787ms total)
T2594 000:919 JLINK_ReadMem (0xE00FFFF0, 0x0010 Bytes, ...) -- CPU is running -- CPU_ReadMem(16 bytes @ 0xE00FFFF0) - Data: 0D 00 00 00 10 00 00 00 05 00 00 00 B1 00 00 00  returns 0x00 (0003ms, 0790ms total)
T2594 000:922 JLINK_ReadMem (0xE00FFFD0, 0x0020 Bytes, ...) -- CPU is running -- CPU_ReadMem(32 bytes @ 0xE00FFFD0) - Data: 00 00 00 00 00 00 00 00 00 00 00 00 00 00 00 00 ...  returns 0x00 (0004ms, 0794ms total)
T2594 000:926 JLINK_ReadMem (0xE00FF000, 0x0018 Bytes, ...) -- CPU is running -- CPU_ReadMem(24 bytes @ 0xE00FF000) - Data: 03 F0 F0 FF 03 20 F0 FF 03 30 F0 FF 03 10 F0 FF ...  returns 0x00 (0003ms, 0797ms total)
T2594 000:929 JLINK_ReadMemU32(0xE000ED00, 0x0001 Items, ...) -- CPU is running -- CPU_ReadMem(4 bytes @ 0xE000ED00) - Data: 41 C2 0F 41  returns 0x01 (0002ms, 0799ms total)
T2594 000:931 JLINK_ReadMemU32(0xE000EF40, 0x0001 Items, ...) -- CPU is running -- CPU_ReadMem(4 bytes @ 0xE000EF40) - Data: 21 00 11 10  returns 0x01 (0003ms, 0802ms total)
T2594 000:934 JLINK_ReadMemU32(0xE000EF44, 0x0001 Items, ...) -- CPU is running -- CPU_ReadMem(4 bytes @ 0xE000EF44) - Data: 11 00 00 11  returns 0x01 (0002ms, 0804ms total)
T2594 000:936 JLINK_SetResetType(JLINKARM_RESET_TYPE_NO_RESET)  returns JLINKARM_RESET_TYPE_NORMAL (0001ms, 0805ms total)
T2594 000:937 JLINK_Reset() -- CPU is running -- CPU_WriteMem(4 bytes @ 0xE000EDF0) -- CPU is running -- CPU_WriteMem(4 bytes @ 0xE000EDFC) >0x35 TIF> -- CPU is running -- CPU_WriteMem(4 bytes @ 0xE000ED0C) -- CPU is running -- CPU_ReadMem(4 bytes @ 0xE000EDF0) -- CPU is running -- CPU_ReadMem(4 bytes @ 0xE000EDF0) -- CPU is running -- CPU_WriteMem(4 bytes @ 0xE000EDF0) -- CPU is running -- CPU_WriteMem(4 bytes @ 0xE000EDFC) -- CPU is running -- CPU_ReadMem(4 bytes @ 0xE000EDF0)
 -- CPU_WriteMem(4 bytes @ 0xE0002000) -- CPU_ReadMem(4 bytes @ 0xE000EDFC) -- CPU_ReadMem(4 bytes @ 0xE0001000) (0042ms, 0847ms total)
T2594 000:979 JLINK_Halt()  returns 0x00 (0000ms, 0847ms total)
T2594 000:979 JLINK_IsHalted()  returns TRUE (0000ms, 0847ms total)
T2594 000:979 JLINK_ReadMemU32(0xE000EDF0, 0x0001 Items, ...) -- CPU_ReadMem(4 bytes @ 0xE000EDF0) - Data: 03 00 03 00  returns 0x01 (0002ms, 0849ms total)
T2594 000:981 JLINK_WriteU32(0xE000EDF0, 0xA05F0003) -- CPU_WriteMem(4 bytes @ 0xE000EDF0)  returns 0x00 (0001ms, 0850ms total)
T2594 000:982 JLINK_WriteU32(0xE000EDFC, 0x01000000) -- CPU_WriteMem(4 bytes @ 0xE000EDFC)  returns 0x00 (0003ms, 0853ms total)
T2594 001:003 JLINK_GetHWStatus(...)  returns 0x00 (0002ms, 0855ms total)
T2594 001:016 JLINK_GetNumBPUnits(Type = 0xFFFFFF00)  returns 0x06 (0001ms, 0856ms total)
T2594 001:017 JLINK_GetNumBPUnits(Type = 0xF0)  returns 0x2000 (0000ms, 0856ms total)
T2594 001:017 JLINK_GetNumWPUnits()  returns 0x04 (0000ms, 0856ms total)
T2594 001:032 JLINK_GetSpeed()  returns 0x1F4 (0000ms, 0856ms total)
T2594 001:037 JLINK_ReadMemU32(0xE000E004, 0x0001 Items, ...) -- CPU_ReadMem(4 bytes @ 0xE000E004) - Data: 02 00 00 00  returns 0x01 (0002ms, 0858ms total)
T2594 001:039 JLINK_ReadMemU32(0xE000E004, 0x0001 Items, ...) -- CPU_ReadMem(4 bytes @ 0xE000E004) - Data: 02 00 00 00  returns 0x01 (0002ms, 0860ms total)
T2594 001:041 JLINK_WriteMem(0xE0001000, 0x001C Bytes, ...) - Data: 01 00 00 00 00 00 00 00 00 00 00 00 00 00 00 00 ... -- CPU_WriteMem(28 bytes @ 0xE0001000)  returns 0x1C (0003ms, 0863ms total)
T2594 001:044 JLINK_ReadMem (0xE0001000, 0x001C Bytes, ...) -- CPU_ReadMem(28 bytes @ 0xE0001000) - Data: 01 00 00 40 00 00 00 00 00 00 00 00 00 00 00 00 ...  returns 0x00 (0002ms, 0865ms total)
T2594 001:046 JLINK_Halt()  returns 0x00 (0000ms, 0865ms total)
T2594 001:046 JLINK_IsHalted()  returns TRUE (0000ms, 0865ms total)
T2594 001:049 JLINK_WriteMem(0x20000000, 0x0180 Bytes, ...) - Data: 00 BE 0A E0 0D 78 2D 06 68 40 08 24 40 00 00 D3 ... -- CPU_WriteMem(384 bytes @ 0x20000000)  returns 0x180 (0012ms, 0877ms total)
T2594 001:061 JLINK_WriteReg(R0, 0x08000000)  returns 0x00 (0000ms, 0877ms total)
T2594 001:061 JLINK_WriteReg(R1, 0x007A1200)  returns 0x00 (0000ms, 0877ms total)
T2594 001:061 JLINK_WriteReg(R2, 0x00000001)  returns 0x00 (0000ms, 0877ms total)
T2594 001:061 JLINK_WriteReg(R3, 0x00000000)  returns 0x00 (0000ms, 0877ms total)
T2594 001:061 JLINK_WriteReg(R4, 0x00000000)  returns 0x00 (0000ms, 0877ms total)
T2594 001:061 JLINK_WriteReg(R5, 0x00000000)  returns 0x00 (0000ms, 0877ms total)
T2594 001:061 JLINK_WriteReg(R6, 0x00000000)  returns 0x00 (0000ms, 0877ms total)
T2594 001:061 JLINK_WriteReg(R7, 0x00000000)  returns 0x00 (0000ms, 0877ms total)
T2594 001:061 JLINK_WriteReg(R8, 0x00000000)  returns 0x00 (0000ms, 0877ms total)
T2594 001:061 JLINK_WriteReg(R9, 0x2000017C)  returns 0x00 (0000ms, 0877ms total)
T2594 001:061 JLINK_WriteReg(R10, 0x00000000)  returns 0x00 (0000ms, 0877ms total)
T2594 001:061 JLINK_WriteReg(R11, 0x00000000)  returns 0x00 (0000ms, 0877ms total)
T2594 001:061 JLINK_WriteReg(R12, 0x00000000)  returns 0x00 (0000ms, 0877ms total)
T2594 001:061 JLINK_WriteReg(R13 (SP), 0x20000800)  returns 0x00 (0000ms, 0877ms total)
T2594 001:061 JLINK_WriteReg(R14, 0x20000001)  returns 0x00 (0000ms, 0877ms total)
T2594 001:061 JLINK_WriteReg(R15 (PC), 0x20000054)  returns 0x00 (0001ms, 0878ms total)
T2594 001:062 JLINK_WriteReg(XPSR, 0x01000000)  returns 0x00 (0000ms, 0878ms total)
T2594 001:062 JLINK_WriteReg(MSP, 0x20000800)  returns 0x00 (0000ms, 0878ms total)
T2594 001:062 JLINK_WriteReg(PSP, 0x20000800)  returns 0x00 (0000ms, 0878ms total)
T2594 001:062 JLINK_WriteReg(CFBP, 0x00000000)  returns 0x00 (0000ms, 0878ms total)
T2594 001:062 JLINK_SetBPEx(Addr = 0x20000000, Type = 0xFFFFFFF2) -- CPU_ReadMem(2 bytes @ 0x20000000)  returns 0x00000001 (0002ms, 0880ms total)
T2594 001:064 JLINK_Go() -- CPU_WriteMem(2 bytes @ 0x20000000) -- CPU_WriteMem(4 bytes @ 0xE0002008) -- CPU_WriteMem(4 bytes @ 0xE000200C) -- CPU_WriteMem(4 bytes @ 0xE0002010) -- CPU_WriteMem(4 bytes @ 0xE0002014) -- CPU_WriteMem(4 bytes @ 0xE0002018) -- CPU_WriteMem(4 bytes @ 0xE000201C) -- CPU_WriteMem(4 bytes @ 0xE0001004) (0022ms, 0902ms total)
T2594 001:086 JLINK_IsHalted() -- CPU_ReadMem(2 bytes @ 0x20000000)  returns TRUE (0013ms, 0915ms total)
T2594 001:099 JLINK_ReadReg(R15 (PC))  returns 0x20000000 (0000ms, 0902ms total)
T2594 001:099 JLINK_ClrBPEx(BPHandle = 0x00000001)  returns 0x00 (0000ms, 0902ms total)
T2594 001:099 JLINK_ReadReg(R0)  returns 0x00000000 (0000ms, 0902ms total)
T2594 001:099 JLINK_WriteReg(R0, 0x08000000)  returns 0x00 (0000ms, 0902ms total)
T2594 001:099 JLINK_WriteReg(R1, 0x00004000)  returns 0x00 (0000ms, 0902ms total)
T2594 001:099 JLINK_WriteReg(R2, 0x000000FF)  returns 0x00 (0000ms, 0902ms total)
T2594 001:099 JLINK_WriteReg(R3, 0x00000000)  returns 0x00 (0000ms, 0902ms total)
T2594 001:099 JLINK_WriteReg(R4, 0x00000000)  returns 0x00 (0000ms, 0902ms total)
T2594 001:099 JLINK_WriteReg(R5, 0x00000000)  returns 0x00 (0000ms, 0902ms total)
T2594 001:099 JLINK_WriteReg(R6, 0x00000000)  returns 0x00 (0000ms, 0902ms total)
T2594 001:099 JLINK_WriteReg(R7, 0x00000000)  returns 0x00 (0000ms, 0902ms total)
T2594 001:099 JLINK_WriteReg(R8, 0x00000000)  returns 0x00 (0001ms, 0903ms total)
T2594 001:100 JLINK_WriteReg(R9, 0x2000017C)  returns 0x00 (0000ms, 0903ms total)
T2594 001:100 JLINK_WriteReg(R10, 0x00000000)  returns 0x00 (0000ms, 0903ms total)
T2594 001:100 JLINK_WriteReg(R11, 0x00000000)  returns 0x00 (0000ms, 0903ms total)
T2594 001:100 JLINK_WriteReg(R12, 0x00000000)  returns 0x00 (0000ms, 0903ms total)
T2594 001:100 JLINK_WriteReg(R13 (SP), 0x20000800)  returns 0x00 (0000ms, 0903ms total)
T2594 001:100 JLINK_WriteReg(R14, 0x20000001)  returns 0x00 (0000ms, 0903ms total)
T2594 001:100 JLINK_WriteReg(R15 (PC), 0x20000020)  returns 0x00 (0000ms, 0903ms total)
T2594 001:100 JLINK_WriteReg(XPSR, 0x01000000)  returns 0x00 (0000ms, 0903ms total)
T2594 001:100 JLINK_WriteReg(MSP, 0x20000800)  returns 0x00 (0000ms, 0903ms total)
T2594 001:100 JLINK_WriteReg(PSP, 0x20000800)  returns 0x00 (0000ms, 0903ms total)
T2594 001:100 JLINK_WriteReg(CFBP, 0x00000000)  returns 0x00 (0000ms, 0903ms total)
T2594 001:100 JLINK_SetBPEx(Addr = 0x20000000, Type = 0xFFFFFFF2)  returns 0x00000002 (0000ms, 0903ms total)
T2594 001:100 JLINK_Go() (0005ms, 0908ms total)
T2594 001:105 JLINK_IsHalted() -- CPU_ReadMem(2 bytes @ 0x20000000)  returns TRUE (0013ms, 0921ms total)
T2594 001:118 JLINK_ReadReg(R15 (PC))  returns 0x20000000 (0000ms, 0908ms total)
T2594 001:118 JLINK_ClrBPEx(BPHandle = 0x00000002)  returns 0x00 (0000ms, 0908ms total)
T2594 001:118 JLINK_ReadReg(R0)  returns 0x00000001 (0000ms, 0908ms total)
T2594 001:118 JLINK_WriteReg(R0, 0x08000000)  returns 0x00 (0000ms, 0908ms total)
T2594 001:118 JLINK_WriteReg(R1, 0x00004000)  returns 0x00 (0000ms, 0908ms total)
T2594 001:118 JLINK_WriteReg(R2, 0x000000FF)  returns 0x00 (0000ms, 0908ms total)
T2594 001:118 JLINK_WriteReg(R3, 0x00000000)  returns 0x00 (0000ms, 0908ms total)
T2594 001:118 JLINK_WriteReg(R4, 0x00000000)  returns 0x00 (0000ms, 0908ms total)
T2594 001:118 JLINK_WriteReg(R5, 0x00000000)  returns 0x00 (0000ms, 0908ms total)
T2594 001:118 JLINK_WriteReg(R6, 0x00000000)  returns 0x00 (0000ms, 0908ms total)
T2594 001:118 JLINK_WriteReg(R7, 0x00000000)  returns 0x00 (0000ms, 0908ms total)
T2594 001:118 JLINK_WriteReg(R8, 0x00000000)  returns 0x00 (0000ms, 0908ms total)
T2594 001:118 JLINK_WriteReg(R9, 0x2000017C)  returns 0x00 (0000ms, 0908ms total)
T2594 001:118 JLINK_WriteReg(R10, 0x00000000)  returns 0x00 (0000ms, 0908ms total)
T2594 001:118 JLINK_WriteReg(R11, 0x00000000)  returns 0x00 (0000ms, 0908ms total)
T2594 001:118 JLINK_WriteReg(R12, 0x00000000)  returns 0x00 (0000ms, 0908ms total)
T2594 001:118 JLINK_WriteReg(R13 (SP), 0x20000800)  returns 0x00 (0000ms, 0908ms total)
T2594 001:118 JLINK_WriteReg(R14, 0x20000001)  returns 0x00 (0000ms, 0908ms total)
T2594 001:118 JLINK_WriteReg(R15 (PC), 0x200000BC)  returns 0x00 (0000ms, 0908ms total)
T2594 001:118 JLINK_WriteReg(XPSR, 0x01000000)  returns 0x00 (0000ms, 0908ms total)
T2594 001:118 JLINK_WriteReg(MSP, 0x20000800)  returns 0x00 (0000ms, 0908ms total)
T2594 001:118 JLINK_WriteReg(PSP, 0x20000800)  returns 0x00 (0000ms, 0908ms total)
T2594 001:118 JLINK_WriteReg(CFBP, 0x00000000)  returns 0x00 (0000ms, 0908ms total)
T2594 001:118 JLINK_SetBPEx(Addr = 0x20000000, Type = 0xFFFFFFF2)  returns 0x00000003 (0000ms, 0908ms total)
T2594 001:118 JLINK_Go() (0005ms, 0913ms total)
T2594 001:123 JLINK_IsHalted()  returns FALSE (0003ms, 0916ms total)
T2594 001:176 JLINK_IsHalted()  returns FALSE (0001ms, 0914ms total)
T2594 001:180 JLINK_IsHalted()  returns FALSE (0001ms, 0914ms total)
T2594 001:183 JLINK_IsHalted()  returns FALSE (0001ms, 0914ms total)
T2594 001:187 JLINK_IsHalted()  returns FALSE (0002ms, 0915ms total)
T2594 001:191 JLINK_IsHalted()  returns FALSE (0002ms, 0915ms total)
T2594 001:195 JLINK_IsHalted()  returns FALSE (0001ms, 0914ms total)
T2594 001:198 JLINK_IsHalted()  returns FALSE (0002ms, 0915ms total)
T2594 001:202 JLINK_IsHalted()  returns FALSE (0002ms, 0915ms total)
T2594 001:206 JLINK_IsHalted()  returns FALSE (0001ms, 0914ms total)
T2594 001:209 JLINK_IsHalted()  returns FALSE (0001ms, 0914ms total)
T2594 001:212 JLINK_IsHalted()  returns FALSE (0002ms, 0915ms total)
T2594 001:216 JLINK_IsHalted()  returns FALSE (0001ms, 0914ms total)
T2594 001:220 JLINK_IsHalted()  returns FALSE (0002ms, 0915ms total)
T2594 001:224 JLINK_IsHalted()  returns FALSE (0002ms, 0915ms total)
T2594 001:228 JLINK_IsHalted()  returns FALSE (0002ms, 0915ms total)
T2594 001:232 JLINK_IsHalted()  returns FALSE (0002ms, 0915ms total)
T2594 001:236 JLINK_IsHalted()  returns FALSE (0002ms, 0915ms total)
T2594 001:240 JLINK_IsHalted()  returns FALSE (0001ms, 0914ms total)
T2594 001:245 JLINK_IsHalted()  returns FALSE (0002ms, 0915ms total)
T2594 001:249 JLINK_IsHalted()  returns FALSE (0002ms, 0915ms total)
T2594 001:253 JLINK_IsHalted()  returns FALSE (0002ms, 0915ms total)
T2594 001:257 JLINK_IsHalted()  returns FALSE (0001ms, 0914ms total)
T2594 001:270 JLINK_IsHalted()  returns FALSE (0002ms, 0915ms total)
T2594 001:277 JLINK_IsHalted()  returns FALSE (0002ms, 0915ms total)
T2594 001:281 JLINK_IsHalted()  returns FALSE (0002ms, 0915ms total)
T2594 001:285 JLINK_IsHalted()  returns FALSE (0002ms, 0915ms total)
T2594 001:289 JLINK_IsHalted()  returns FALSE (0001ms, 0914ms total)
T2594 001:292 JLINK_IsHalted()  returns FALSE (0001ms, 0914ms total)
T2594 001:295 JLINK_IsHalted()  returns FALSE (0001ms, 0914ms total)
T2594 001:298 JLINK_IsHalted()  returns FALSE (0001ms, 0914ms total)
T2594 001:301 JLINK_IsHalted()  returns FALSE (0001ms, 0914ms total)
T2594 001:304 JLINK_IsHalted()  returns FALSE (0001ms, 0914ms total)
T2594 001:307 JLINK_IsHalted()  returns FALSE (0001ms, 0914ms total)
T2594 001:310 JLINK_IsHalted()  returns FALSE (0002ms, 0915ms total)
T2594 001:314 JLINK_IsHalted()  returns FALSE (0001ms, 0914ms total)
T2594 001:317 JLINK_IsHalted()  returns FALSE (0002ms, 0915ms total)
T2594 001:321 JLINK_IsHalted()  returns FALSE (0002ms, 0915ms total)
T2594 001:325 JLINK_IsHalted()  returns FALSE (0002ms, 0915ms total)
T2594 001:329 JLINK_IsHalted()  returns FALSE (0002ms, 0915ms total)
T2594 001:333 JLINK_IsHalted()  returns FALSE (0002ms, 0915ms total)
T2594 001:337 JLINK_IsHalted()  returns FALSE (0001ms, 0914ms total)
T2594 001:340 JLINK_IsHalted()  returns FALSE (0001ms, 0914ms total)
T2594 001:343 JLINK_IsHalted()  returns FALSE (0002ms, 0915ms total)
T2594 001:347 JLINK_IsHalted()  returns FALSE (0002ms, 0915ms total)
T2594 001:351 JLINK_IsHalted()  returns FALSE (0001ms, 0914ms total)
T2594 001:354 JLINK_IsHalted()  returns FALSE (0001ms, 0914ms total)
T2594 001:357 JLINK_IsHalted()  returns FALSE (0002ms, 0915ms total)
T2594 001:361 JLINK_IsHalted()  returns FALSE (0002ms, 0915ms total)
T2594 001:365 JLINK_IsHalted()  returns FALSE (0002ms, 0915ms total)
T2594 001:381 JLINK_IsHalted()  returns FALSE (0002ms, 0915ms total)
T2594 001:387 JLINK_IsHalted()  returns FALSE (0002ms, 0915ms total)
T2594 001:391 JLINK_IsHalted()  returns FALSE (0002ms, 0915ms total)
T2594 001:395 JLINK_IsHalted()  returns FALSE (0002ms, 0915ms total)
T2594 001:399 JLINK_IsHalted()  returns FALSE (0002ms, 0915ms total)
T2594 001:403 JLINK_IsHalted()  returns FALSE (0002ms, 0915ms total)
T2594 001:407 JLINK_IsHalted()  returns FALSE (0002ms, 0915ms total)
T2594 001:411 JLINK_IsHalted()  returns FALSE (0002ms, 0915ms total)
T2594 001:415 JLINK_IsHalted()  returns FALSE (0002ms, 0915ms total)
T2594 001:419 JLINK_IsHalted()  returns FALSE (0002ms, 0915ms total)
T2594 001:423 JLINK_IsHalted()  returns FALSE (0002ms, 0915ms total)
T2594 001:427 JLINK_IsHalted()  returns FALSE (0002ms, 0915ms total)
T2594 001:431 JLINK_IsHalted()  returns FALSE (0001ms, 0914ms total)
T2594 001:434 JLINK_IsHalted()  returns FALSE (0001ms, 0914ms total)
T2594 001:437 JLINK_IsHalted()  returns FALSE (0001ms, 0914ms total)
T2594 001:440 JLINK_IsHalted()  returns FALSE (0001ms, 0914ms total)
T2594 001:449 JLINK_IsHalted()  returns FALSE (0002ms, 0915ms total)
T2594 001:453 JLINK_IsHalted()  returns FALSE (0001ms, 0914ms total)
T2594 001:456 JLINK_IsHalted()  returns FALSE (0002ms, 0915ms total)
T2594 001:460 JLINK_IsHalted()  returns FALSE (0001ms, 0914ms total)
T2594 001:463 JLINK_IsHalted()  returns FALSE (0002ms, 0915ms total)
T2594 001:467 JLINK_IsHalted()  returns FALSE (0002ms, 0915ms total)
T2594 001:471 JLINK_IsHalted()  returns FALSE (0002ms, 0915ms total)
T2594 001:475 JLINK_IsHalted()  returns FALSE (0001ms, 0914ms total)
T2594 001:487 JLINK_IsHalted()  returns FALSE (0002ms, 0915ms total)
T2594 001:497 JLINK_IsHalted()  returns FALSE (0002ms, 0915ms total)
T2594 001:501 JLINK_IsHalted()  returns FALSE (0002ms, 0915ms total)
T2594 001:505 JLINK_IsHalted()  returns FALSE (0001ms, 0914ms total)
T2594 001:508 JLINK_IsHalted()  returns FALSE (0001ms, 0914ms total)
T2594 001:511 JLINK_IsHalted()  returns FALSE (0002ms, 0915ms total)
T2594 001:515 JLINK_IsHalted()  returns FALSE (0002ms, 0915ms total)
T2594 001:519 JLINK_IsHalted()  returns FALSE (0002ms, 0915ms total)
T2594 001:523 JLINK_IsHalted() -- CPU_ReadMem(2 bytes @ 0x20000000)  returns TRUE (0012ms, 0925ms total)
T2594 001:535 JLINK_ReadReg(R15 (PC))  returns 0x20000000 (0000ms, 0913ms total)
T2594 001:535 JLINK_ClrBPEx(BPHandle = 0x00000003)  returns 0x00 (0000ms, 0913ms total)
T2594 001:535 JLINK_ReadReg(R0)  returns 0x00000000 (0000ms, 0913ms total)
T2594 001:536 JLINK_WriteReg(R0, 0x08004000)  returns 0x00 (0000ms, 0913ms total)
T2594 001:536 JLINK_WriteReg(R1, 0x00004000)  returns 0x00 (0000ms, 0913ms total)
T2594 001:536 JLINK_WriteReg(R2, 0x000000FF)  returns 0x00 (0000ms, 0913ms total)
T2594 001:536 JLINK_WriteReg(R3, 0x00000000)  returns 0x00 (0000ms, 0913ms total)
T2594 001:536 JLINK_WriteReg(R4, 0x00000000)  returns 0x00 (0000ms, 0913ms total)
T2594 001:536 JLINK_WriteReg(R5, 0x00000000)  returns 0x00 (0000ms, 0913ms total)
T2594 001:536 JLINK_WriteReg(R6, 0x00000000)  returns 0x00 (0000ms, 0913ms total)
T2594 001:536 JLINK_WriteReg(R7, 0x00000000)  returns 0x00 (0000ms, 0913ms total)
T2594 001:536 JLINK_WriteReg(R8, 0x00000000)  returns 0x00 (0000ms, 0913ms total)
T2594 001:536 JLINK_WriteReg(R9, 0x2000017C)  returns 0x00 (0000ms, 0913ms total)
T2594 001:536 JLINK_WriteReg(R10, 0x00000000)  returns 0x00 (0000ms, 0913ms total)
T2594 001:536 JLINK_WriteReg(R11, 0x00000000)  returns 0x00 (0000ms, 0913ms total)
T2594 001:536 JLINK_WriteReg(R12, 0x00000000)  returns 0x00 (0000ms, 0913ms total)
T2594 001:536 JLINK_WriteReg(R13 (SP), 0x20000800)  returns 0x00 (0000ms, 0913ms total)
T2594 001:536 JLINK_WriteReg(R14, 0x20000001)  returns 0x00 (0000ms, 0913ms total)
T2594 001:536 JLINK_WriteReg(R15 (PC), 0x20000020)  returns 0x00 (0000ms, 0913ms total)
T2594 001:536 JLINK_WriteReg(XPSR, 0x01000000)  returns 0x00 (0000ms, 0913ms total)
T2594 001:536 JLINK_WriteReg(MSP, 0x20000800)  returns 0x00 (0000ms, 0913ms total)
T2594 001:536 JLINK_WriteReg(PSP, 0x20000800)  returns 0x00 (0000ms, 0913ms total)
T2594 001:536 JLINK_WriteReg(CFBP, 0x00000000)  returns 0x00 (0000ms, 0913ms total)
T2594 001:536 JLINK_SetBPEx(Addr = 0x20000000, Type = 0xFFFFFFF2)  returns 0x00000004 (0000ms, 0913ms total)
T2594 001:536 JLINK_Go() (0006ms, 0919ms total)
T2594 001:542 JLINK_IsHalted() -- CPU_ReadMem(2 bytes @ 0x20000000)  returns TRUE (0012ms, 0931ms total)
T2594 001:554 JLINK_ReadReg(R15 (PC))  returns 0x20000000 (0001ms, 0920ms total)
T2594 001:555 JLINK_ClrBPEx(BPHandle = 0x00000004)  returns 0x00 (0000ms, 0920ms total)
T2594 001:555 JLINK_ReadReg(R0)  returns 0x00000001 (0000ms, 0920ms total)
T2594 001:555 JLINK_WriteReg(R0, 0x08004000)  returns 0x00 (0000ms, 0920ms total)
T2594 001:555 JLINK_WriteReg(R1, 0x00004000)  returns 0x00 (0000ms, 0920ms total)
T2594 001:555 JLINK_WriteReg(R2, 0x000000FF)  returns 0x00 (0000ms, 0920ms total)
T2594 001:555 JLINK_WriteReg(R3, 0x00000000)  returns 0x00 (0000ms, 0920ms total)
T2594 001:555 JLINK_WriteReg(R4, 0x00000000)  returns 0x00 (0000ms, 0920ms total)
T2594 001:555 JLINK_WriteReg(R5, 0x00000000)  returns 0x00 (0000ms, 0920ms total)
T2594 001:555 JLINK_WriteReg(R6, 0x00000000)  returns 0x00 (0000ms, 0920ms total)
T2594 001:555 JLINK_WriteReg(R7, 0x00000000)  returns 0x00 (0000ms, 0920ms total)
T2594 001:555 JLINK_WriteReg(R8, 0x00000000)  returns 0x00 (0000ms, 0920ms total)
T2594 001:555 JLINK_WriteReg(R9, 0x2000017C)  returns 0x00 (0000ms, 0920ms total)
T2594 001:555 JLINK_WriteReg(R10, 0x00000000)  returns 0x00 (0000ms, 0920ms total)
T2594 001:555 JLINK_WriteReg(R11, 0x00000000)  returns 0x00 (0000ms, 0920ms total)
T2594 001:555 JLINK_WriteReg(R12, 0x00000000)  returns 0x00 (0000ms, 0920ms total)
T2594 001:555 JLINK_WriteReg(R13 (SP), 0x20000800)  returns 0x00 (0000ms, 0920ms total)
T2594 001:555 JLINK_WriteReg(R14, 0x20000001)  returns 0x00 (0000ms, 0920ms total)
T2594 001:555 JLINK_WriteReg(R15 (PC), 0x200000BC)  returns 0x00 (0000ms, 0920ms total)
T2594 001:555 JLINK_WriteReg(XPSR, 0x01000000)  returns 0x00 (0000ms, 0920ms total)
T2594 001:555 JLINK_WriteReg(MSP, 0x20000800)  returns 0x00 (0000ms, 0920ms total)
T2594 001:555 JLINK_WriteReg(PSP, 0x20000800)  returns 0x00 (0000ms, 0920ms total)
T2594 001:555 JLINK_WriteReg(CFBP, 0x00000000)  returns 0x00 (0000ms, 0920ms total)
T2594 001:555 JLINK_SetBPEx(Addr = 0x20000000, Type = 0xFFFFFFF2)  returns 0x00000005 (0000ms, 0920ms total)
T2594 001:555 JLINK_Go() (0005ms, 0925ms total)
T2594 001:560 JLINK_IsHalted()  returns FALSE (0002ms, 0927ms total)
T2594 001:567 JLINK_IsHalted()  returns FALSE (0001ms, 0926ms total)
T2594 001:571 JLINK_IsHalted()  returns FALSE (0002ms, 0927ms total)
T2594 001:575 JLINK_IsHalted()  returns FALSE (0001ms, 0926ms total)
T2594 001:579 JLINK_IsHalted()  returns FALSE (0001ms, 0926ms total)
T2594 001:582 JLINK_IsHalted()  returns FALSE (0001ms, 0926ms total)
T2594 001:598 JLINK_IsHalted()  returns FALSE (0002ms, 0927ms total)
T2594 001:602 JLINK_IsHalted()  returns FALSE (0002ms, 0927ms total)
T2594 001:608 JLINK_IsHalted()  returns FALSE (0002ms, 0927ms total)
T2594 001:612 JLINK_IsHalted()  returns FALSE (0002ms, 0927ms total)
T2594 001:616 JLINK_IsHalted()  returns FALSE (0001ms, 0926ms total)
T2594 001:619 JLINK_IsHalted()  returns FALSE (0001ms, 0926ms total)
T2594 001:623 JLINK_IsHalted()  returns FALSE (0002ms, 0927ms total)
T2594 001:627 JLINK_IsHalted()  returns FALSE (0002ms, 0927ms total)
T2594 001:631 JLINK_IsHalted()  returns FALSE (0002ms, 0927ms total)
T2594 001:635 JLINK_IsHalted()  returns FALSE (0002ms, 0927ms total)
T2594 001:639 JLINK_IsHalted()  returns FALSE (0002ms, 0927ms total)
T2594 001:643 JLINK_IsHalted()  returns FALSE (0002ms, 0927ms total)
T2594 001:648 JLINK_IsHalted()  returns FALSE (0002ms, 0927ms total)
T2594 001:652 JLINK_IsHalted()  returns FALSE (0001ms, 0926ms total)
T2594 001:656 JLINK_IsHalted()  returns FALSE (0002ms, 0927ms total)
T2594 001:660 JLINK_IsHalted()  returns FALSE (0002ms, 0927ms total)
T2594 001:664 JLINK_IsHalted()  returns FALSE (0001ms, 0926ms total)
T2594 001:667 JLINK_IsHalted()  returns FALSE (0001ms, 0926ms total)
T2594 001:670 JLINK_IsHalted()  returns FALSE (0001ms, 0926ms total)
T2594 001:673 JLINK_IsHalted()  returns FALSE (0001ms, 0926ms total)
T2594 001:676 JLINK_IsHalted()  returns FALSE (0002ms, 0927ms total)
T2594 001:680 JLINK_IsHalted()  returns FALSE (0001ms, 0926ms total)
T2594 001:683 JLINK_IsHalted()  returns FALSE (0001ms, 0926ms total)
T2594 001:686 JLINK_IsHalted()  returns FALSE (0002ms, 0927ms total)
T2594 001:690 JLINK_IsHalted()  returns FALSE (0002ms, 0927ms total)
T2594 001:707 JLINK_IsHalted()  returns FALSE (0002ms, 0927ms total)
T2594 001:712 JLINK_IsHalted()  returns FALSE (0002ms, 0927ms total)
T2594 001:716 JLINK_IsHalted()  returns FALSE (0002ms, 0927ms total)
T2594 001:720 JLINK_IsHalted()  returns FALSE (0002ms, 0927ms total)
T2594 001:724 JLINK_IsHalted()  returns FALSE (0001ms, 0926ms total)
T2594 001:728 JLINK_IsHalted()  returns FALSE (0002ms, 0927ms total)
T2594 001:732 JLINK_IsHalted()  returns FALSE (0002ms, 0927ms total)
T2594 001:736 JLINK_IsHalted()  returns FALSE (0002ms, 0927ms total)
T2594 001:740 JLINK_IsHalted()  returns FALSE (0001ms, 0926ms total)
T2594 001:744 JLINK_IsHalted()  returns FALSE (0002ms, 0927ms total)
T2594 001:748 JLINK_IsHalted()  returns FALSE (0001ms, 0926ms total)
T2594 001:751 JLINK_IsHalted()  returns FALSE (0002ms, 0927ms total)
T2594 001:755 JLINK_IsHalted()  returns FALSE (0001ms, 0926ms total)
T2594 001:758 JLINK_IsHalted()  returns FALSE (0002ms, 0927ms total)
T2594 001:762 JLINK_IsHalted()  returns FALSE (0002ms, 0927ms total)
T2594 001:766 JLINK_IsHalted()  returns FALSE (0001ms, 0926ms total)
T2594 001:774 JLINK_IsHalted()  returns FALSE (0002ms, 0927ms total)
T2594 001:778 JLINK_IsHalted()  returns FALSE (0002ms, 0927ms total)
T2594 001:782 JLINK_IsHalted()  returns FALSE (0001ms, 0926ms total)
T2594 001:785 JLINK_IsHalted()  returns FALSE (0001ms, 0926ms total)
T2594 001:788 JLINK_IsHalted()  returns FALSE (0001ms, 0926ms total)
T2594 001:791 JLINK_IsHalted()  returns FALSE (0002ms, 0927ms total)
T2594 001:795 JLINK_IsHalted()  returns FALSE (0001ms, 0926ms total)
T2594 001:798 JLINK_IsHalted()  returns FALSE (0002ms, 0927ms total)
T2594 001:802 JLINK_IsHalted()  returns FALSE (0001ms, 0926ms total)
T2594 001:817 JLINK_IsHalted()  returns FALSE (0001ms, 0926ms total)
T2594 001:822 JLINK_IsHalted()  returns FALSE (0002ms, 0927ms total)
T2594 001:826 JLINK_IsHalted()  returns FALSE (0002ms, 0927ms total)
T2594 001:830 JLINK_IsHalted()  returns FALSE (0002ms, 0927ms total)
T2594 001:834 JLINK_IsHalted()  returns FALSE (0001ms, 0926ms total)
T2594 001:837 JLINK_IsHalted()  returns FALSE (0001ms, 0926ms total)
T2594 001:840 JLINK_IsHalted()  returns FALSE (0002ms, 0927ms total)
T2594 001:844 JLINK_IsHalted()  returns FALSE (0002ms, 0927ms total)
T2594 001:848 JLINK_IsHalted()  returns FALSE (0001ms, 0926ms total)
T2594 001:851 JLINK_IsHalted()  returns FALSE (0001ms, 0926ms total)
T2594 001:855 JLINK_IsHalted()  returns FALSE (0002ms, 0927ms total)
T2594 001:859 JLINK_IsHalted()  returns FALSE (0002ms, 0927ms total)
T2594 001:863 JLINK_IsHalted()  returns FALSE (0002ms, 0927ms total)
T2594 001:869 JLINK_IsHalted()  returns FALSE (0001ms, 0926ms total)
T2594 001:872 JLINK_IsHalted()  returns FALSE (0002ms, 0927ms total)
T2594 001:876 JLINK_IsHalted()  returns FALSE (0002ms, 0927ms total)
T2594 001:880 JLINK_IsHalted()  returns FALSE (0001ms, 0926ms total)
T2594 001:883 JLINK_IsHalted()  returns FALSE (0001ms, 0926ms total)
T2594 001:886 JLINK_IsHalted()  returns FALSE (0001ms, 0926ms total)
T2594 001:889 JLINK_IsHalted()  returns FALSE (0002ms, 0927ms total)
T2594 001:893 JLINK_IsHalted()  returns FALSE (0002ms, 0927ms total)
T2594 001:897 JLINK_IsHalted()  returns FALSE (0001ms, 0926ms total)
T2594 001:900 JLINK_IsHalted()  returns FALSE (0001ms, 0926ms total)
T2594 001:903 JLINK_IsHalted()  returns FALSE (0002ms, 0927ms total)
T2594 001:907 JLINK_IsHalted()  returns FALSE (0002ms, 0927ms total)
T2594 001:911 JLINK_IsHalted()  returns FALSE (0001ms, 0926ms total)
T2594 001:922 JLINK_IsHalted()  returns FALSE (0002ms, 0927ms total)
T2594 001:926 JLINK_IsHalted()  returns FALSE (0002ms, 0927ms total)
T2594 001:932 JLINK_IsHalted()  returns FALSE (0002ms, 0927ms total)
T2594 001:936 JLINK_IsHalted()  returns FALSE (0002ms, 0927ms total)
T2594 001:940 JLINK_IsHalted()  returns FALSE (0002ms, 0927ms total)
T2594 001:944 JLINK_IsHalted()  returns FALSE (0001ms, 0926ms total)
T2594 001:949 JLINK_IsHalted()  returns FALSE (0002ms, 0927ms total)
T2594 001:953 JLINK_IsHalted()  returns FALSE (0002ms, 0927ms total)
T2594 001:957 JLINK_IsHalted()  returns FALSE (0002ms, 0927ms total)
T2594 001:961 JLINK_IsHalted() -- CPU_ReadMem(2 bytes @ 0x20000000)  returns TRUE (0012ms, 0937ms total)
T2594 001:973 JLINK_ReadReg(R15 (PC))  returns 0x20000000 (0000ms, 0925ms total)
T2594 001:973 JLINK_ClrBPEx(BPHandle = 0x00000005)  returns 0x00 (0000ms, 0925ms total)
T2594 001:973 JLINK_ReadReg(R0)  returns 0x00000000 (0000ms, 0925ms total)
T2594 001:974 JLINK_WriteReg(R0, 0x00000001)  returns 0x00 (0000ms, 0925ms total)
T2594 001:974 JLINK_WriteReg(R1, 0x00004000)  returns 0x00 (0000ms, 0925ms total)
T2594 001:974 JLINK_WriteReg(R2, 0x000000FF)  returns 0x00 (0000ms, 0925ms total)
T2594 001:974 JLINK_WriteReg(R3, 0x00000000)  returns 0x00 (0000ms, 0925ms total)
T2594 001:974 JLINK_WriteReg(R4, 0x00000000)  returns 0x00 (0000ms, 0925ms total)
T2594 001:974 JLINK_WriteReg(R5, 0x00000000)  returns 0x00 (0000ms, 0925ms total)
T2594 001:974 JLINK_WriteReg(R6, 0x00000000)  returns 0x00 (0000ms, 0925ms total)
T2594 001:974 JLINK_WriteReg(R7, 0x00000000)  returns 0x00 (0000ms, 0925ms total)
T2594 001:975 JLINK_WriteReg(R8, 0x00000000)  returns 0x00 (0000ms, 0926ms total)
T2594 001:975 JLINK_WriteReg(R9, 0x2000017C)  returns 0x00 (0000ms, 0926ms total)
T2594 001:975 JLINK_WriteReg(R10, 0x00000000)  returns 0x00 (0000ms, 0926ms total)
T2594 001:975 JLINK_WriteReg(R11, 0x00000000)  returns 0x00 (0000ms, 0926ms total)
T2594 001:975 JLINK_WriteReg(R12, 0x00000000)  returns 0x00 (0000ms, 0926ms total)
T2594 001:975 JLINK_WriteReg(R13 (SP), 0x20000800)  returns 0x00 (0000ms, 0926ms total)
T2594 001:975 JLINK_WriteReg(R14, 0x20000001)  returns 0x00 (0000ms, 0926ms total)
T2594 001:975 JLINK_WriteReg(R15 (PC), 0x20000082)  returns 0x00 (0000ms, 0926ms total)
T2594 001:975 JLINK_WriteReg(XPSR, 0x01000000)  returns 0x00 (0000ms, 0926ms total)
T2594 001:975 JLINK_WriteReg(MSP, 0x20000800)  returns 0x00 (0000ms, 0926ms total)
T2594 001:975 JLINK_WriteReg(PSP, 0x20000800)  returns 0x00 (0000ms, 0926ms total)
T2594 001:975 JLINK_WriteReg(CFBP, 0x00000000)  returns 0x00 (0000ms, 0926ms total)
T2594 001:975 JLINK_SetBPEx(Addr = 0x20000000, Type = 0xFFFFFFF2)  returns 0x00000006 (0000ms, 0926ms total)
T2594 001:975 JLINK_Go() (0006ms, 0932ms total)
T2594 001:981 JLINK_IsHalted() -- CPU_ReadMem(2 bytes @ 0x20000000)  returns TRUE (0012ms, 0944ms total)
T2594 001:993 JLINK_ReadReg(R15 (PC))  returns 0x20000000 (0000ms, 0932ms total)
T2594 001:993 JLINK_ClrBPEx(BPHandle = 0x00000006)  returns 0x00 (0000ms, 0932ms total)
T2594 001:993 JLINK_ReadReg(R0)  returns 0x00000000 (0000ms, 0932ms total)
T2594 002:054 JLINK_WriteMem(0x20000000, 0x0180 Bytes, ...) - Data: 00 BE 0A E0 0D 78 2D 06 68 40 08 24 40 00 00 D3 ... -- CPU_WriteMem(384 bytes @ 0x20000000)  returns 0x180 (0013ms, 0945ms total)
T2594 002:067 JLINK_WriteReg(R0, 0x08000000)  returns 0x00 (0000ms, 0945ms total)
T2594 002:067 JLINK_WriteReg(R1, 0x007A1200)  returns 0x00 (0000ms, 0945ms total)
T2594 002:067 JLINK_WriteReg(R2, 0x00000002)  returns 0x00 (0000ms, 0945ms total)
T2594 002:067 JLINK_WriteReg(R3, 0x00000000)  returns 0x00 (0000ms, 0945ms total)
T2594 002:067 JLINK_WriteReg(R4, 0x00000000)  returns 0x00 (0000ms, 0945ms total)
T2594 002:067 JLINK_WriteReg(R5, 0x00000000)  returns 0x00 (0000ms, 0945ms total)
T2594 002:067 JLINK_WriteReg(R6, 0x00000000)  returns 0x00 (0000ms, 0945ms total)
T2594 002:067 JLINK_WriteReg(R7, 0x00000000)  returns 0x00 (0001ms, 0946ms total)
T2594 002:068 JLINK_WriteReg(R8, 0x00000000)  returns 0x00 (0000ms, 0946ms total)
T2594 002:068 JLINK_WriteReg(R9, 0x2000017C)  returns 0x00 (0000ms, 0946ms total)
T2594 002:068 JLINK_WriteReg(R10, 0x00000000)  returns 0x00 (0000ms, 0946ms total)
T2594 002:068 JLINK_WriteReg(R11, 0x00000000)  returns 0x00 (0000ms, 0946ms total)
T2594 002:068 JLINK_WriteReg(R12, 0x00000000)  returns 0x00 (0000ms, 0946ms total)
T2594 002:068 JLINK_WriteReg(R13 (SP), 0x20000800)  returns 0x00 (0000ms, 0946ms total)
T2594 002:068 JLINK_WriteReg(R14, 0x20000001)  returns 0x00 (0000ms, 0946ms total)
T2594 002:068 JLINK_WriteReg(R15 (PC), 0x20000054)  returns 0x00 (0000ms, 0946ms total)
T2594 002:068 JLINK_WriteReg(XPSR, 0x01000000)  returns 0x00 (0000ms, 0946ms total)
T2594 002:068 JLINK_WriteReg(MSP, 0x20000800)  returns 0x00 (0000ms, 0946ms total)
T2594 002:068 JLINK_WriteReg(PSP, 0x20000800)  returns 0x00 (0000ms, 0946ms total)
T2594 002:068 JLINK_WriteReg(CFBP, 0x00000000)  returns 0x00 (0000ms, 0946ms total)
T2594 002:068 JLINK_SetBPEx(Addr = 0x20000000, Type = 0xFFFFFFF2) -- CPU_ReadMem(2 bytes @ 0x20000000)  returns 0x00000007 (0002ms, 0948ms total)
T2594 002:070 JLINK_Go() -- CPU_WriteMem(2 bytes @ 0x20000000) (0008ms, 0956ms total)
T2594 002:078 JLINK_IsHalted() -- CPU_ReadMem(2 bytes @ 0x20000000)  returns TRUE (0012ms, 0968ms total)
T2594 002:090 JLINK_ReadReg(R15 (PC))  returns 0x20000000 (0000ms, 0956ms total)
T2594 002:090 JLINK_ClrBPEx(BPHandle = 0x00000007)  returns 0x00 (0000ms, 0956ms total)
T2594 002:090 JLINK_ReadReg(R0)  returns 0x00000000 (0000ms, 0956ms total)
T2594 002:090 JLINK_WriteMem(0x20000180, 0x0400 Bytes, ...) - Data: 00 34 00 20 C1 01 00 08 C9 01 00 08 D9 40 00 08 ... -- CPU_WriteMem(1024 bytes @ 0x20000180)  returns 0x400 (0029ms, 0985ms total)
T2594 002:119 JLINK_WriteReg(R0, 0x08000000)  returns 0x00 (0000ms, 0985ms total)
T2594 002:119 JLINK_WriteReg(R1, 0x00000400)  returns 0x00 (0000ms, 0985ms total)
T2594 002:119 JLINK_WriteReg(R2, 0x20000180)  returns 0x00 (0000ms, 0985ms total)
T2594 002:119 JLINK_WriteReg(R3, 0x00000000)  returns 0x00 (0000ms, 0985ms total)
T2594 002:119 JLINK_WriteReg(R4, 0x00000000)  returns 0x00 (0000ms, 0985ms total)
T2594 002:119 JLINK_WriteReg(R5, 0x00000000)  returns 0x00 (0000ms, 0985ms total)
T2594 002:119 JLINK_WriteReg(R6, 0x00000000)  returns 0x00 (0000ms, 0985ms total)
T2594 002:119 JLINK_WriteReg(R7, 0x00000000)  returns 0x00 (0000ms, 0985ms total)
T2594 002:119 JLINK_WriteReg(R8, 0x00000000)  returns 0x00 (0000ms, 0985ms total)
T2594 002:119 JLINK_WriteReg(R9, 0x2000017C)  returns 0x00 (0000ms, 0985ms total)
T2594 002:119 JLINK_WriteReg(R10, 0x00000000)  returns 0x00 (0000ms, 0985ms total)
T2594 002:119 JLINK_WriteReg(R11, 0x00000000)  returns 0x00 (0000ms, 0985ms total)
T2594 002:119 JLINK_WriteReg(R12, 0x00000000)  returns 0x00 (0000ms, 0985ms total)
T2594 002:119 JLINK_WriteReg(R13 (SP), 0x20000800)  returns 0x00 (0000ms, 0985ms total)
T2594 002:119 JLINK_WriteReg(R14, 0x20000001)  returns 0x00 (0000ms, 0985ms total)
T2594 002:119 JLINK_WriteReg(R15 (PC), 0x20000108)  returns 0x00 (0000ms, 0985ms total)
T2594 002:119 JLINK_WriteReg(XPSR, 0x01000000)  returns 0x00 (0000ms, 0985ms total)
T2594 002:119 JLINK_WriteReg(MSP, 0x20000800)  returns 0x00 (0000ms, 0985ms total)
T2594 002:119 JLINK_WriteReg(PSP, 0x20000800)  returns 0x00 (0000ms, 0985ms total)
T2594 002:119 JLINK_WriteReg(CFBP, 0x00000000)  returns 0x00 (0000ms, 0985ms total)
T2594 002:119 JLINK_SetBPEx(Addr = 0x20000000, Type = 0xFFFFFFF2)  returns 0x00000008 (0000ms, 0985ms total)
T2594 002:119 JLINK_Go() (0006ms, 0991ms total)
T2594 002:125 JLINK_IsHalted()  returns FALSE (0002ms, 0993ms total)
T2594 002:151 JLINK_IsHalted() -- CPU_ReadMem(2 bytes @ 0x20000000)  returns TRUE (0013ms, 1004ms total)
T2594 002:164 JLINK_ReadReg(R15 (PC))  returns 0x20000000 (0000ms, 0991ms total)
T2594 002:164 JLINK_ClrBPEx(BPHandle = 0x00000008)  returns 0x00 (0000ms, 0991ms total)
T2594 002:164 JLINK_ReadReg(R0)  returns 0x00000000 (0000ms, 0991ms total)
T2594 002:164 JLINK_WriteMem(0x20000180, 0x0400 Bytes, ...) - Data: D0 03 00 20 00 B5 97 B0 69 46 03 48 02 F0 8E FF ... -- CPU_WriteMem(1024 bytes @ 0x20000180)  returns 0x400 (0028ms, 1019ms total)
T2594 002:192 JLINK_WriteReg(R0, 0x08000400)  returns 0x00 (0001ms, 1020ms total)
T2594 002:193 JLINK_WriteReg(R1, 0x00000400)  returns 0x00 (0000ms, 1020ms total)
T2594 002:193 JLINK_WriteReg(R2, 0x20000180)  returns 0x00 (0000ms, 1020ms total)
T2594 002:193 JLINK_WriteReg(R3, 0x00000000)  returns 0x00 (0000ms, 1020ms total)
T2594 002:193 JLINK_WriteReg(R4, 0x00000000)  returns 0x00 (0000ms, 1020ms total)
T2594 002:193 JLINK_WriteReg(R5, 0x00000000)  returns 0x00 (0000ms, 1020ms total)
T2594 002:193 JLINK_WriteReg(R6, 0x00000000)  returns 0x00 (0000ms, 1020ms total)
T2594 002:193 JLINK_WriteReg(R7, 0x00000000)  returns 0x00 (0000ms, 1020ms total)
T2594 002:193 JLINK_WriteReg(R8, 0x00000000)  returns 0x00 (0000ms, 1020ms total)
T2594 002:193 JLINK_WriteReg(R9, 0x2000017C)  returns 0x00 (0000ms, 1020ms total)
T2594 002:193 JLINK_WriteReg(R10, 0x00000000)  returns 0x00 (0000ms, 1020ms total)
T2594 002:193 JLINK_WriteReg(R11, 0x00000000)  returns 0x00 (0000ms, 1020ms total)
T2594 002:193 JLINK_WriteReg(R12, 0x00000000)  returns 0x00 (0000ms, 1020ms total)
T2594 002:193 JLINK_WriteReg(R13 (SP), 0x20000800)  returns 0x00 (0000ms, 1020ms total)
T2594 002:193 JLINK_WriteReg(R14, 0x20000001)  returns 0x00 (0000ms, 1020ms total)
T2594 002:193 JLINK_WriteReg(R15 (PC), 0x20000108)  returns 0x00 (0000ms, 1020ms total)
T2594 002:193 JLINK_WriteReg(XPSR, 0x01000000)  returns 0x00 (0000ms, 1020ms total)
T2594 002:193 JLINK_WriteReg(MSP, 0x20000800)  returns 0x00 (0000ms, 1020ms total)
T2594 002:193 JLINK_WriteReg(PSP, 0x20000800)  returns 0x00 (0000ms, 1020ms total)
T2594 002:193 JLINK_WriteReg(CFBP, 0x00000000)  returns 0x00 (0000ms, 1020ms total)
T2594 002:193 JLINK_SetBPEx(Addr = 0x20000000, Type = 0xFFFFFFF2)  returns 0x00000009 (0000ms, 1020ms total)
T2594 002:193 JLINK_Go() (0005ms, 1025ms total)
T2594 002:199 JLINK_IsHalted()  returns FALSE (0001ms, 1027ms total)
T2594 002:205 JLINK_IsHalted() -- CPU_ReadMem(2 bytes @ 0x20000000)  returns TRUE (0012ms, 1038ms total)
T2594 002:217 JLINK_ReadReg(R15 (PC))  returns 0x20000000 (0000ms, 1026ms total)
T2594 002:217 JLINK_ClrBPEx(BPHandle = 0x00000009)  returns 0x00 (0000ms, 1026ms total)
T2594 002:217 JLINK_ReadReg(R0)  returns 0x00000000 (0000ms, 1026ms total)
T2594 002:218 JLINK_WriteMem(0x20000180, 0x0400 Bytes, ...) - Data: 81 68 C9 06 09 D5 01 69 C9 06 06 D5 10 21 41 61 ... -- CPU_WriteMem(1024 bytes @ 0x20000180)  returns 0x400 (0029ms, 1055ms total)
T2594 002:247 JLINK_WriteReg(R0, 0x08000800)  returns 0x00 (0000ms, 1055ms total)
T2594 002:247 JLINK_WriteReg(R1, 0x00000400)  returns 0x00 (0000ms, 1055ms total)
T2594 002:247 JLINK_WriteReg(R2, 0x20000180)  returns 0x00 (0000ms, 1055ms total)
T2594 002:247 JLINK_WriteReg(R3, 0x00000000)  returns 0x00 (0000ms, 1055ms total)
T2594 002:247 JLINK_WriteReg(R4, 0x00000000)  returns 0x00 (0000ms, 1055ms total)
T2594 002:247 JLINK_WriteReg(R5, 0x00000000)  returns 0x00 (0000ms, 1055ms total)
T2594 002:247 JLINK_WriteReg(R6, 0x00000000)  returns 0x00 (0000ms, 1055ms total)
T2594 002:247 JLINK_WriteReg(R7, 0x00000000)  returns 0x00 (0000ms, 1055ms total)
T2594 002:247 JLINK_WriteReg(R8, 0x00000000)  returns 0x00 (0000ms, 1055ms total)
T2594 002:247 JLINK_WriteReg(R9, 0x2000017C)  returns 0x00 (0000ms, 1055ms total)
T2594 002:247 JLINK_WriteReg(R10, 0x00000000)  returns 0x00 (0000ms, 1055ms total)
T2594 002:247 JLINK_WriteReg(R11, 0x00000000)  returns 0x00 (0000ms, 1055ms total)
T2594 002:247 JLINK_WriteReg(R12, 0x00000000)  returns 0x00 (0000ms, 1055ms total)
T2594 002:247 JLINK_WriteReg(R13 (SP), 0x20000800)  returns 0x00 (0000ms, 1055ms total)
T2594 002:247 JLINK_WriteReg(R14, 0x20000001)  returns 0x00 (0000ms, 1055ms total)
T2594 002:247 JLINK_WriteReg(R15 (PC), 0x20000108)  returns 0x00 (0000ms, 1055ms total)
T2594 002:247 JLINK_WriteReg(XPSR, 0x01000000)  returns 0x00 (0000ms, 1055ms total)
T2594 002:247 JLINK_WriteReg(MSP, 0x20000800)  returns 0x00 (0000ms, 1055ms total)
T2594 002:247 JLINK_WriteReg(PSP, 0x20000800)  returns 0x00 (0000ms, 1055ms total)
T2594 002:247 JLINK_WriteReg(CFBP, 0x00000000)  returns 0x00 (0000ms, 1055ms total)
T2594 002:247 JLINK_SetBPEx(Addr = 0x20000000, Type = 0xFFFFFFF2)  returns 0x0000000A (0000ms, 1055ms total)
T2594 002:247 JLINK_Go() (0006ms, 1061ms total)
T2594 002:253 JLINK_IsHalted()  returns FALSE (0002ms, 1063ms total)
T2594 002:270 JLINK_IsHalted() -- CPU_ReadMem(2 bytes @ 0x20000000)  returns TRUE (0012ms, 1073ms total)
T2594 002:282 JLINK_ReadReg(R15 (PC))  returns 0x20000000 (0000ms, 1061ms total)
T2594 002:282 JLINK_ClrBPEx(BPHandle = 0x0000000A)  returns 0x00 (0000ms, 1061ms total)
T2594 002:282 JLINK_ReadReg(R0)  returns 0x00000000 (0000ms, 1061ms total)
T2594 002:283 JLINK_WriteMem(0x20000180, 0x0400 Bytes, ...) - Data: 49 07 6C D5 01 68 21 F0 04 01 01 60 DF 49 38 68 ... -- CPU_WriteMem(1024 bytes @ 0x20000180)  returns 0x400 (0029ms, 1090ms total)
T2594 002:312 JLINK_WriteReg(R0, 0x08000C00)  returns 0x00 (0000ms, 1090ms total)
T2594 002:312 JLINK_WriteReg(R1, 0x00000400)  returns 0x00 (0000ms, 1090ms total)
T2594 002:312 JLINK_WriteReg(R2, 0x20000180)  returns 0x00 (0000ms, 1090ms total)
T2594 002:312 JLINK_WriteReg(R3, 0x00000000)  returns 0x00 (0000ms, 1090ms total)
T2594 002:312 JLINK_WriteReg(R4, 0x00000000)  returns 0x00 (0000ms, 1090ms total)
T2594 002:312 JLINK_WriteReg(R5, 0x00000000)  returns 0x00 (0000ms, 1090ms total)
T2594 002:312 JLINK_WriteReg(R6, 0x00000000)  returns 0x00 (0000ms, 1090ms total)
T2594 002:312 JLINK_WriteReg(R7, 0x00000000)  returns 0x00 (0000ms, 1090ms total)
T2594 002:312 JLINK_WriteReg(R8, 0x00000000)  returns 0x00 (0000ms, 1090ms total)
T2594 002:312 JLINK_WriteReg(R9, 0x2000017C)  returns 0x00 (0000ms, 1090ms total)
T2594 002:312 JLINK_WriteReg(R10, 0x00000000)  returns 0x00 (0000ms, 1090ms total)
T2594 002:312 JLINK_WriteReg(R11, 0x00000000)  returns 0x00 (0000ms, 1090ms total)
T2594 002:312 JLINK_WriteReg(R12, 0x00000000)  returns 0x00 (0000ms, 1090ms total)
T2594 002:312 JLINK_WriteReg(R13 (SP), 0x20000800)  returns 0x00 (0000ms, 1090ms total)
T2594 002:312 JLINK_WriteReg(R14, 0x20000001)  returns 0x00 (0000ms, 1090ms total)
T2594 002:312 JLINK_WriteReg(R15 (PC), 0x20000108)  returns 0x00 (0000ms, 1090ms total)
T2594 002:312 JLINK_WriteReg(XPSR, 0x01000000)  returns 0x00 (0000ms, 1090ms total)
T2594 002:312 JLINK_WriteReg(MSP, 0x20000800)  returns 0x00 (0000ms, 1090ms total)
T2594 002:312 JLINK_WriteReg(PSP, 0x20000800)  returns 0x00 (0000ms, 1090ms total)
T2594 002:312 JLINK_WriteReg(CFBP, 0x00000000)  returns 0x00 (0000ms, 1090ms total)
T2594 002:312 JLINK_SetBPEx(Addr = 0x20000000, Type = 0xFFFFFFF2)  returns 0x0000000B (0000ms, 1090ms total)
T2594 002:312 JLINK_Go() (0006ms, 1096ms total)
T2594 002:318 JLINK_IsHalted()  returns FALSE (0002ms, 1098ms total)
T2594 002:322 JLINK_IsHalted() -- CPU_ReadMem(2 bytes @ 0x20000000)  returns TRUE (0012ms, 1108ms total)
T2594 002:334 JLINK_ReadReg(R15 (PC))  returns 0x20000000 (0000ms, 1096ms total)
T2594 002:334 JLINK_ClrBPEx(BPHandle = 0x0000000B)  returns 0x00 (0000ms, 1096ms total)
T2594 002:334 JLINK_ReadReg(R0)  returns 0x00000000 (0000ms, 1096ms total)
T2594 002:335 JLINK_WriteMem(0x20000180, 0x0400 Bytes, ...) - Data: C2 60 2B E0 A0 42 26 D0 A8 42 24 D0 B0 42 22 D0 ... -- CPU_WriteMem(1024 bytes @ 0x20000180)  returns 0x400 (0029ms, 1125ms total)
T2594 002:364 JLINK_WriteReg(R0, 0x08001000)  returns 0x00 (0000ms, 1125ms total)
T2594 002:364 JLINK_WriteReg(R1, 0x00000400)  returns 0x00 (0000ms, 1125ms total)
T2594 002:364 JLINK_WriteReg(R2, 0x20000180)  returns 0x00 (0000ms, 1125ms total)
T2594 002:364 JLINK_WriteReg(R3, 0x00000000)  returns 0x00 (0000ms, 1125ms total)
T2594 002:364 JLINK_WriteReg(R4, 0x00000000)  returns 0x00 (0000ms, 1125ms total)
T2594 002:364 JLINK_WriteReg(R5, 0x00000000)  returns 0x00 (0000ms, 1125ms total)
T2594 002:364 JLINK_WriteReg(R6, 0x00000000)  returns 0x00 (0000ms, 1125ms total)
T2594 002:364 JLINK_WriteReg(R7, 0x00000000)  returns 0x00 (0000ms, 1125ms total)
T2594 002:364 JLINK_WriteReg(R8, 0x00000000)  returns 0x00 (0000ms, 1125ms total)
T2594 002:364 JLINK_WriteReg(R9, 0x2000017C)  returns 0x00 (0000ms, 1125ms total)
T2594 002:364 JLINK_WriteReg(R10, 0x00000000)  returns 0x00 (0000ms, 1125ms total)
T2594 002:364 JLINK_WriteReg(R11, 0x00000000)  returns 0x00 (0000ms, 1125ms total)
T2594 002:364 JLINK_WriteReg(R12, 0x00000000)  returns 0x00 (0000ms, 1125ms total)
T2594 002:364 JLINK_WriteReg(R13 (SP), 0x20000800)  returns 0x00 (0000ms, 1125ms total)
T2594 002:364 JLINK_WriteReg(R14, 0x20000001)  returns 0x00 (0000ms, 1125ms total)
T2594 002:364 JLINK_WriteReg(R15 (PC), 0x20000108)  returns 0x00 (0000ms, 1125ms total)
T2594 002:364 JLINK_WriteReg(XPSR, 0x01000000)  returns 0x00 (0000ms, 1125ms total)
T2594 002:364 JLINK_WriteReg(MSP, 0x20000800)  returns 0x00 (0000ms, 1125ms total)
T2594 002:364 JLINK_WriteReg(PSP, 0x20000800)  returns 0x00 (0000ms, 1125ms total)
T2594 002:364 JLINK_WriteReg(CFBP, 0x00000000)  returns 0x00 (0000ms, 1125ms total)
T2594 002:364 JLINK_SetBPEx(Addr = 0x20000000, Type = 0xFFFFFFF2)  returns 0x0000000C (0000ms, 1125ms total)
T2594 002:364 JLINK_Go() (0006ms, 1131ms total)
T2594 002:370 JLINK_IsHalted()  returns FALSE (0002ms, 1133ms total)
T2594 002:387 JLINK_IsHalted() -- CPU_ReadMem(2 bytes @ 0x20000000)  returns TRUE (0013ms, 1144ms total)
T2594 002:400 JLINK_ReadReg(R15 (PC))  returns 0x20000000 (0000ms, 1131ms total)
T2594 002:400 JLINK_ClrBPEx(BPHandle = 0x0000000C)  returns 0x00 (0000ms, 1131ms total)
T2594 002:400 JLINK_ReadReg(R0)  returns 0x00000000 (0000ms, 1131ms total)
T2594 002:401 JLINK_WriteMem(0x20000180, 0x0400 Bytes, ...) - Data: 18 31 88 42 03 D0 FA 49 60 31 88 42 05 D1 02 E0 ... -- CPU_WriteMem(1024 bytes @ 0x20000180)  returns 0x400 (0028ms, 1159ms total)
T2594 002:429 JLINK_WriteReg(R0, 0x08001400)  returns 0x00 (0000ms, 1159ms total)
T2594 002:429 JLINK_WriteReg(R1, 0x00000400)  returns 0x00 (0000ms, 1159ms total)
T2594 002:429 JLINK_WriteReg(R2, 0x20000180)  returns 0x00 (0000ms, 1159ms total)
T2594 002:429 JLINK_WriteReg(R3, 0x00000000)  returns 0x00 (0000ms, 1159ms total)
T2594 002:429 JLINK_WriteReg(R4, 0x00000000)  returns 0x00 (0000ms, 1159ms total)
T2594 002:429 JLINK_WriteReg(R5, 0x00000000)  returns 0x00 (0000ms, 1159ms total)
T2594 002:429 JLINK_WriteReg(R6, 0x00000000)  returns 0x00 (0000ms, 1159ms total)
T2594 002:429 JLINK_WriteReg(R7, 0x00000000)  returns 0x00 (0001ms, 1160ms total)
T2594 002:430 JLINK_WriteReg(R8, 0x00000000)  returns 0x00 (0000ms, 1160ms total)
T2594 002:430 JLINK_WriteReg(R9, 0x2000017C)  returns 0x00 (0000ms, 1160ms total)
T2594 002:430 JLINK_WriteReg(R10, 0x00000000)  returns 0x00 (0000ms, 1160ms total)
T2594 002:430 JLINK_WriteReg(R11, 0x00000000)  returns 0x00 (0000ms, 1160ms total)
T2594 002:430 JLINK_WriteReg(R12, 0x00000000)  returns 0x00 (0000ms, 1160ms total)
T2594 002:430 JLINK_WriteReg(R13 (SP), 0x20000800)  returns 0x00 (0000ms, 1160ms total)
T2594 002:430 JLINK_WriteReg(R14, 0x20000001)  returns 0x00 (0000ms, 1160ms total)
T2594 002:430 JLINK_WriteReg(R15 (PC), 0x20000108)  returns 0x00 (0000ms, 1160ms total)
T2594 002:430 JLINK_WriteReg(XPSR, 0x01000000)  returns 0x00 (0000ms, 1160ms total)
T2594 002:430 JLINK_WriteReg(MSP, 0x20000800)  returns 0x00 (0000ms, 1160ms total)
T2594 002:430 JLINK_WriteReg(PSP, 0x20000800)  returns 0x00 (0000ms, 1160ms total)
T2594 002:430 JLINK_WriteReg(CFBP, 0x00000000)  returns 0x00 (0000ms, 1160ms total)
T2594 002:430 JLINK_SetBPEx(Addr = 0x20000000, Type = 0xFFFFFFF2)  returns 0x0000000D (0000ms, 1160ms total)
T2594 002:430 JLINK_Go() (0006ms, 1166ms total)
T2594 002:436 JLINK_IsHalted()  returns FALSE (0002ms, 1168ms total)
T2594 002:440 JLINK_IsHalted() -- CPU_ReadMem(2 bytes @ 0x20000000)  returns TRUE (0013ms, 1179ms total)
T2594 002:453 JLINK_ReadReg(R15 (PC))  returns 0x20000000 (0000ms, 1166ms total)
